#Parameters = {Curva=0; DistanciaX=50; DistanciaY=50; Hcooper=0.035; Hfr=1.565; La=14; Lamda=61.2322; Lf=15; Lfdiv=15.30805; Lp=27; Placa=100; Wa=2; Wf=3; Wfdiv=1.6548; Wp=26.11}
#"Frequency / MHz"	"S2,2 [Mag]"	"S2,2 [Pha in deg.]"	"Ref.Imp. [Mag]"	"Ref.Imp. [Pha in deg.]"
#---------------------------------------------------------------------------------------------
1500.0000000000	0.98506030476882	162.33290233312	92.956108211626	0.0000000000000
1502.0000000000	0.98157809214113	162.15978351063	92.956108211626	0.0000000000000
1504.0000000000	0.97830159009292	162.00902789079	92.956108211626	0.0000000000000
1506.0000000000	0.97526849285821	161.87928140827	92.956108211626	0.0000000000000
1508.0000000000	0.97251376289744	161.76891842310	92.956108211626	0.0000000000000
1510.0000000000	0.97006920598607	161.67604191423	92.956108211626	0.0000000000000
1512.0000000000	0.96796248777179	161.59856153760	92.956108211626	0.0000000000000
1514.0000000000	0.96621746482704	161.53413987916	92.956108211626	0.0000000000000
1516.0000000000	0.96485308833770	161.48027353385	92.956108211626	0.0000000000000
1518.0000000000	0.96388413800242	161.43430958155	92.956108211626	0.0000000000000
1520.0000000000	0.96331965700922	161.39351784638	92.956108211626	0.0000000000000
1522.0000000000	0.96316410786957	161.35512019590	92.956108211626	0.0000000000000
1524.0000000000	0.96341652580889	161.31626761739	92.956108211626	0.0000000000000
1526.0000000000	0.96407087793938	161.27420800380	92.956108211626	0.0000000000000
1528.0000000000	0.96511609475044	161.22625943794	92.956108211626	0.0000000000000
1530.0000000000	0.96653647783575	161.16983058281	92.956108211626	0.0000000000000
1532.0000000000	0.96831155723640	161.10252666754	92.956108211626	0.0000000000000
1534.0000000000	0.97041677301846	161.02212162370	92.956108211626	0.0000000000000
1536.0000000000	0.97282404566495	160.92663511867	92.956108211626	0.0000000000000
1538.0000000000	0.97550136058105	160.81430432915	92.956108211626	0.0000000000000
1540.0000000000	0.97841464674176	160.68365527953	92.956108211626	0.0000000000000
1542.0000000000	0.98152686974796	160.53347389610	92.956108211626	0.0000000000000
1544.0000000000	0.98479968877291	160.36282931337	92.956108211626	0.0000000000000
1546.0000000000	0.98819297209993	160.17107940535	92.956108211626	0.0000000000000
1548.0000000000	0.99166601194556	159.95785153608	92.956108211626	0.0000000000000
1550.0000000000	0.99517805806745	159.72305740385	92.956108211626	0.0000000000000
1552.0000000000	0.99868843029115	159.46683001352	92.956108211626	0.0000000000000
1554.0000000000	1.0021569205366	159.18958133594	92.956108211626	0.0000000000000
1556.0000000000	1.0055446073121	158.89193359536	92.956108211626	0.0000000000000
1558.0000000000	1.0088142110597	158.57474024810	92.956108211626	0.0000000000000
1560.0000000000	1.0119300562925	158.23902240682	92.956108211626	0.0000000000000
1562.0000000000	1.0148589286097	157.88598264844	92.956108211626	0.0000000000000
1564.0000000000	1.0175698192300	157.51697691338	92.956108211626	0.0000000000000
1566.0000000000	1.0200346495726	157.13348784872	92.956108211626	0.0000000000000
1568.0000000000	1.0222283684636	156.73711779126	92.956108211626	0.0000000000000
1570.0000000000	1.0241288708575	156.32959066555	92.956108211626	0.0000000000000
1572.0000000000	1.0257174951792	155.91265893892	92.956108211626	0.0000000000000
1574.0000000000	1.0269790512101	155.48817778705	92.956108211626	0.0000000000000
1576.0000000000	1.0279019954137	155.05803876959	92.956108211626	0.0000000000000
1578.0000000000	1.0284781889360	154.62420140011	92.956108211626	0.0000000000000
1580.0000000000	1.0287029600309	154.18858227946	92.956108211626	0.0000000000000
1582.0000000000	1.0285760013354	153.75313360466	92.956108211626	0.0000000000000
1584.0000000000	1.0280999485608	153.31979911576	92.956108211626	0.0000000000000
1586.0000000000	1.0272811846684	152.89049285322	92.956108211626	0.0000000000000
1588.0000000000	1.0261299752828	152.46707581233	92.956108211626	0.0000000000000
1590.0000000000	1.0246599279015	152.05137872652	92.956108211626	0.0000000000000
1592.0000000000	1.0228873405271	151.64515671858	92.956108211626	0.0000000000000
1594.0000000000	1.0208328674790	151.25005903108	92.956108211626	0.0000000000000
1596.0000000000	1.0185189303262	150.86768885992	92.956108211626	0.0000000000000
1598.0000000000	1.0159716133056	150.49948578868	92.956108211626	0.0000000000000
1600.0000000000	1.0132194118917	150.14679162074	92.956108211626	0.0000000000000
1602.0000000000	1.0102928484920	149.81077643993	92.956108211626	0.0000000000000
1604.0000000000	1.0072245407273	149.49246119776	92.956108211626	0.0000000000000
1606.0000000000	1.0040490186223	149.19272737424	92.956108211626	0.0000000000000
1608.0000000000	1.0008022328104	148.91216738190	92.956108211626	0.0000000000000
1610.0000000000	0.99752069669037	148.65131185927	92.956108211626	0.0000000000000
1612.0000000000	0.99424195942268	148.41032206301	92.956108211626	0.0000000000000
1614.0000000000	0.99100380590140	148.18926318778	92.956108211626	0.0000000000000
1616.0000000000	0.98784323684744	147.98786084229	92.956108211626	0.0000000000000
1618.0000000000	0.98479744466663	147.80567901038	92.956108211626	0.0000000000000
1620.0000000000	0.98190157887888	147.64197347007	92.956108211626	0.0000000000000
1622.0000000000	0.97918984654737	147.49578898601	92.956108211626	0.0000000000000
1624.0000000000	0.97669432257843	147.36592259377	92.956108211626	0.0000000000000
1626.0000000000	0.97444429445146	147.25092845257	92.956108211626	0.0000000000000
1628.0000000000	0.97246676589621	147.14918592949	92.956108211626	0.0000000000000
1630.0000000000	0.97078476450981	147.05884600571	92.956108211626	0.0000000000000
1632.0000000000	0.96941853767066	146.97788501764	92.956108211626	0.0000000000000
1634.0000000000	0.96838392920309	146.90414603449	92.956108211626	0.0000000000000
1636.0000000000	0.96769265181514	146.83533283405	92.956108211626	0.0000000000000
1638.0000000000	0.96735273682459	146.76912615880	92.956108211626	0.0000000000000
1640.0000000000	0.96736706279180	146.70312131966	92.956108211626	0.0000000000000
1642.0000000000	0.96773454801218	146.63488149035	92.956108211626	0.0000000000000
1644.0000000000	0.96844978933887	146.56206164982	92.956108211626	0.0000000000000
1646.0000000000	0.96950254316245	146.48232237073	92.956108211626	0.0000000000000
1648.0000000000	0.97087910868102	146.39347687707	92.956108211626	0.0000000000000
1650.0000000000	0.97256155421480	146.29344630990	92.956108211626	0.0000000000000
1652.0000000000	0.97452791684785	146.18029289043	92.956108211626	0.0000000000000
1654.0000000000	0.97675385305739	146.05231216434	92.956108211626	0.0000000000000
1656.0000000000	0.97921112920370	145.90797751769	92.956108211626	0.0000000000000
1658.0000000000	0.98186946236231	145.74597243587	92.956108211626	0.0000000000000
1660.0000000000	0.98469645991266	145.56522219655	92.956108211626	0.0000000000000
1662.0000000000	0.98765820370639	145.36495805921	92.956108211626	0.0000000000000
1664.0000000000	0.99071911004843	145.14450387588	92.956108211626	0.0000000000000
1666.0000000000	0.99384293298551	144.90356224860	92.956108211626	0.0000000000000
1668.0000000000	0.99699331261150	144.64202941256	92.956108211626	0.0000000000000
1670.0000000000	1.0001341581357	144.35998974083	92.956108211626	0.0000000000000
1672.0000000000	1.0032289085051	144.05777458153	92.956108211626	0.0000000000000
1674.0000000000	1.0062429978298	143.73593205067	92.956108211626	0.0000000000000
1676.0000000000	1.0091426138563	143.39519021858	92.956108211626	0.0000000000000
1678.0000000000	1.0118955552082	143.03640768911	92.956108211626	0.0000000000000
1680.0000000000	1.0144712568668	142.66069058233	92.956108211626	0.0000000000000
1682.0000000000	1.0168417026686	142.26921258784	92.956108211626	0.0000000000000
1684.0000000000	1.0189810087816	141.86331863612	92.956108211626	0.0000000000000
1686.0000000000	1.0208661359919	141.44440843102	92.956108211626	0.0000000000000
1688.0000000000	1.0224767508517	141.01407028784	92.956108211626	0.0000000000000
1690.0000000000	1.0237955848228	140.57390608613	92.956108211626	0.0000000000000
1692.0000000000	1.0248081793477	140.12559841768	92.956108211626	0.0000000000000
1694.0000000000	1.0255036557499	139.67087145751	92.956108211626	0.0000000000000
1696.0000000000	1.0258743631665	139.21150027137	92.956108211626	0.0000000000000
1698.0000000000	1.0259159092128	138.74931643925	92.956108211626	0.0000000000000
1700.0000000000	1.0256272893086	138.28609403868	92.956108211626	0.0000000000000
1702.0000000000	1.0250108064390	137.82363997868	92.956108211626	0.0000000000000
1704.0000000000	1.0240728043964	137.36375251450	92.956108211626	0.0000000000000
1706.0000000000	1.0228221076725	136.90820472130	92.956108211626	0.0000000000000
1708.0000000000	1.0212713466279	136.45869071951	92.956108211626	0.0000000000000
1710.0000000000	1.0194358751903	136.01683575712	92.956108211626	0.0000000000000
1712.0000000000	1.0173346444675	135.58426767998	92.956108211626	0.0000000000000
1714.0000000000	1.0149891233517	135.16248358123	92.956108211626	0.0000000000000
1716.0000000000	1.0124233796436	134.75281336203	92.956108211626	0.0000000000000
1718.0000000000	1.0096649460211	134.35660404618	92.956108211626	0.0000000000000
1720.0000000000	1.0067420398265	133.97491195664	92.956108211626	0.0000000000000
1722.0000000000	1.0036865609353	133.60878141514	92.956108211626	0.0000000000000
1724.0000000000	1.0005311041024	133.25899197464	92.956108211626	0.0000000000000
1726.0000000000	0.99731008831265	132.92619870447	92.956108211626	0.0000000000000
1728.0000000000	0.99405877747881	132.61081358274	92.956108211626	0.0000000000000
1730.0000000000	0.99081365406086	132.31309746761	92.956108211626	0.0000000000000
1732.0000000000	0.98761112799306	132.03305313180	92.956108211626	0.0000000000000
1734.0000000000	0.98448743767291	131.77042558185	92.956108211626	0.0000000000000
1736.0000000000	0.98147883835036	131.52480707418	92.956108211626	0.0000000000000
1738.0000000000	0.97861983434783	131.29542857395	92.956108211626	0.0000000000000
1740.0000000000	0.97594454725983	131.08139248246	92.956108211626	0.0000000000000
1742.0000000000	0.97348439585353	130.88148694690	92.956108211626	0.0000000000000
1744.0000000000	0.97126883846763	130.69428874518	92.956108211626	0.0000000000000
1746.0000000000	0.96932504839529	130.51817852749	92.956108211626	0.0000000000000
1748.0000000000	0.96767659877161	130.35133325084	92.956108211626	0.0000000000000
1750.0000000000	0.96634403633787	130.19167116503	92.956108211626	0.0000000000000
1752.0000000000	0.96534382194879	130.03708964676	92.956108211626	0.0000000000000
1754.0000000000	0.96468884392613	129.88521401353	92.956108211626	0.0000000000000
1756.0000000000	0.96438753586390	129.73369007072	92.956108211626	0.0000000000000
1758.0000000000	0.96444418206555	129.58003974574	92.956108211626	0.0000000000000
1760.0000000000	0.96485839156223	129.42182680356	92.956108211626	0.0000000000000
1762.0000000000	0.96562584463481	129.25653052180	92.956108211626	0.0000000000000
1764.0000000000	0.96673742413461	129.08181940181	92.956108211626	0.0000000000000
1766.0000000000	0.96817997825829	128.89532760294	92.956108211626	0.0000000000000
1768.0000000000	0.96993640332701	128.69484328032	92.956108211626	0.0000000000000
1770.0000000000	0.97198560992501	128.47833025732	92.956108211626	0.0000000000000
1772.0000000000	0.97430322545856	128.24391702870	92.956108211626	0.0000000000000
1774.0000000000	0.97686159770457	127.98991651902	92.956108211626	0.0000000000000
1776.0000000000	0.97963026054439	127.71487870972	92.956108211626	0.0000000000000
1778.0000000000	0.98257655548815	127.41757496514	92.956108211626	0.0000000000000
1780.0000000000	0.98566583939155	127.09699032527	92.956108211626	0.0000000000000
1782.0000000000	0.98886184122326	126.75236736048	92.956108211626	0.0000000000000
1784.0000000000	0.99212730913148	126.38318209533	92.956108211626	0.0000000000000
1786.0000000000	0.99542424211077	125.98918799128	92.956108211626	0.0000000000000
1788.0000000000	0.99871458017195	125.57030681134	92.956108211626	0.0000000000000
1790.0000000000	1.0019605350223	125.12672689696	92.956108211626	0.0000000000000
1792.0000000000	1.0051246098902	124.65883482281	92.956108211626	0.0000000000000
1794.0000000000	1.0081706384411	124.16719649010	92.956108211626	0.0000000000000
1796.0000000000	1.0110634520376	123.65261001476	92.956108211626	0.0000000000000
1798.0000000000	1.0137698049080	123.11597206831	92.956108211626	0.0000000000000
1800.0000000000	1.0162581483363	122.55838372736	92.956108211626	0.0000000000000
1802.0000000000	1.0184994529516	121.98109600894	92.956108211626	0.0000000000000
1804.0000000000	1.0204667173364	121.38545271871	92.956108211626	0.0000000000000
1806.0000000000	1.0221361603170	120.77291627970	92.956108211626	0.0000000000000
1808.0000000000	1.0234863065610	120.14508614930	92.956108211626	0.0000000000000
1810.0000000000	1.0244993700640	119.50353936756	92.956108211626	0.0000000000000
1812.0000000000	1.0251599629776	118.85003031027	92.956108211626	0.0000000000000
1814.0000000000	1.0254568177431	118.18629838301	92.956108211626	0.0000000000000
1816.0000000000	1.0253815273217	117.51417997094	92.956108211626	0.0000000000000
1818.0000000000	1.0249293535316	116.83555973006	92.956108211626	0.0000000000000
1820.0000000000	1.0240991730541	116.15221129274	92.956108211626	0.0000000000000
1822.0000000000	1.0228933294503	115.46608093941	92.956108211626	0.0000000000000
1824.0000000000	1.0213177936253	114.77898887314	92.956108211626	0.0000000000000
1826.0000000000	1.0193820530653	114.09280150483	92.956108211626	0.0000000000000
1828.0000000000	1.0170992087812	113.40931841580	92.956108211626	0.0000000000000
1830.0000000000	1.0144858571934	112.73031483488	92.956108211626	0.0000000000000
1832.0000000000	1.0115619161921	112.05751637058	92.956108211626	0.0000000000000
1834.0000000000	1.0083508882320	111.39252469645	92.956108211626	0.0000000000000
1836.0000000000	1.0048788515775	110.73686912373	92.956108211626	0.0000000000000
1838.0000000000	1.0011754331136	110.09200342571	92.956108211626	0.0000000000000
1840.0000000000	0.99727288578714	109.45919970076	92.956108211626	0.0000000000000
1842.0000000000	0.99320595785675	108.83962081045	92.956108211626	0.0000000000000
1844.0000000000	0.98901204304038	108.23424655620	92.956108211626	0.0000000000000
1846.0000000000	0.98473025603662	107.64387229878	92.956108211626	0.0000000000000
1848.0000000000	0.98040139445689	107.06907140342	92.956108211626	0.0000000000000
1850.0000000000	0.97606793896911	106.51017092545	92.956108211626	0.0000000000000
1852.0000000000	0.97177333296711	105.96730679089	92.956108211626	0.0000000000000
1854.0000000000	0.96756104760709	105.44028878037	92.956108211626	0.0000000000000
1856.0000000000	0.96347541571421	104.92865227584	92.956108211626	0.0000000000000
1858.0000000000	0.95955964547510	104.43162119923	92.956108211626	0.0000000000000
1860.0000000000	0.95585654386907	103.94813946536	92.956108211626	0.0000000000000
1862.0000000000	0.95240735017374	103.47681539234	92.956108211626	0.0000000000000
1864.0000000000	0.94925121124677	103.01592879028	92.956108211626	0.0000000000000
1866.0000000000	0.94642511834719	102.56345509914	92.956108211626	0.0000000000000
1868.0000000000	0.94396274110906	102.11704775350	92.956108211626	0.0000000000000
1870.0000000000	0.94189438784754	101.67409717139	92.956108211626	0.0000000000000
1872.0000000000	0.94024659126892	101.23174622144	92.956108211626	0.0000000000000
1874.0000000000	0.93904126925541	100.78682787637	92.956108211626	0.0000000000000
1876.0000000000	0.93829579619233	100.33606218999	92.956108211626	0.0000000000000
1878.0000000000	0.93802235258726	99.875980597000	92.956108211626	0.0000000000000
1880.0000000000	0.93822815965502	99.403004052023	92.956108211626	0.0000000000000
1882.0000000000	0.93891485210205	98.913497477883	92.956108211626	0.0000000000000
1884.0000000000	0.94007865526541	98.403802343313	92.956108211626	0.0000000000000
1886.0000000000	0.94171074110255	97.870309480860	92.956108211626	0.0000000000000
1888.0000000000	0.94379671681139	97.309496786484	92.956108211626	0.0000000000000
1890.0000000000	0.94631716787034	96.717974736594	92.956108211626	0.0000000000000
1892.0000000000	0.94924807722990	96.092465757725	92.956108211626	0.0000000000000
1894.0000000000	0.95256086503728	95.429964551575	92.956108211626	0.0000000000000
1896.0000000000	0.95622285002323	94.727670995254	92.956108211626	0.0000000000000
1898.0000000000	0.96019796635811	93.983030185615	92.956108211626	0.0000000000000
1900.0000000000	0.96444680164366	93.193760525325	92.956108211626	0.0000000000000
1902.0000000000	0.96892749429938	92.357854692174	92.956108211626	0.0000000000000
1904.0000000000	0.97359596403330	91.473563749337	92.956108211626	0.0000000000000
1906.0000000000	0.97840652005828	90.539439729868	92.956108211626	0.0000000000000
1908.0000000000	0.98331220030761	89.554280484086	92.956108211626	0.0000000000000
1910.0000000000	0.98826566013299	88.517157243909	92.956108211626	0.0000000000000
1912.0000000000	0.99321912555744	87.427359460170	92.956108211626	0.0000000000000
1914.0000000000	0.99812516501751	86.284395679802	92.956108211626	0.0000000000000
1916.0000000000	1.0029369242399	85.087992475375	92.956108211626	0.0000000000000
1918.0000000000	1.0076084568085	83.838040293222	92.956108211626	0.0000000000000
1920.0000000000	1.0120955614790	82.534607878136	92.956108211626	0.0000000000000
1922.0000000000	1.0163550191783	81.177873487108	92.956108211626	0.0000000000000
1924.0000000000	1.0203459321178	79.768190330344	92.956108211626	0.0000000000000
1926.0000000000	1.0240295160115	78.305943343831	92.956108211626	0.0000000000000
1928.0000000000	1.0273692212226	76.791634322124	92.956108211626	0.0000000000000
1930.0000000000	1.0303310759749	75.225827612082	92.956108211626	0.0000000000000
1932.0000000000	1.0328836595631	73.609163710668	92.956108211626	0.0000000000000
1934.0000000000	1.0349984102986	71.942268746389	92.956108211626	0.0000000000000
1936.0000000000	1.0366497457426	70.225843729669	92.956108211626	0.0000000000000
1938.0000000000	1.0378148182241	68.460565689418	92.956108211626	0.0000000000000
1940.0000000000	1.0384741561241	66.647149802704	92.956108211626	0.0000000000000
1942.0000000000	1.0386108653879	64.786277831989	92.956108211626	0.0000000000000
1944.0000000000	1.0382118099445	62.878648145824	92.956108211626	0.0000000000000
1946.0000000000	1.0372661539319	60.924927990486	92.956108211626	0.0000000000000
1948.0000000000	1.0357665771149	58.925769041935	92.956108211626	0.0000000000000
1950.0000000000	1.0337088569766	56.881819470274	92.956108211626	0.0000000000000
1952.0000000000	1.0310918508016	54.793670861743	92.956108211626	0.0000000000000
1954.0000000000	1.0279169499130	52.661938887138	92.956108211626	0.0000000000000
1956.0000000000	1.0241891926624	50.487149830429	92.956108211626	0.0000000000000
1958.0000000000	1.0199159753046	48.269859888468	92.956108211626	0.0000000000000
1960.0000000000	1.0151073688282	46.010593849975	92.956108211626	0.0000000000000
1962.0000000000	1.0097764774577	43.709846064272	92.956108211626	0.0000000000000
1964.0000000000	1.0039390202084	41.368098634216	92.956108211626	0.0000000000000
1966.0000000000	0.99761286825353	38.985829845699	92.956108211626	0.0000000000000
1968.0000000000	0.99081840984553	36.563506403262	92.956108211626	0.0000000000000
1970.0000000000	0.98357845139866	34.101609919147	92.956108211626	0.0000000000000
1972.0000000000	0.97591774556308	31.600599722753	92.956108211626	0.0000000000000
1974.0000000000	0.96786297646069	29.060984465580	92.956108211626	0.0000000000000
1976.0000000000	0.95944265005512	26.483286419410	92.956108211626	0.0000000000000
1978.0000000000	0.95068674561091	23.868060248945	92.956108211626	0.0000000000000
1980.0000000000	0.94162704274305	21.215908634044	92.956108211626	0.0000000000000
1982.0000000000	0.93229621215137	18.527489627789	92.956108211626	0.0000000000000
1984.0000000000	0.92272812744745	15.803534776906	92.956108211626	0.0000000000000
