#Parameters = {Curva=0; DistanciaX=50; DistanciaY=50; Hcooper=0.035; Hfr=1.565; La=14; Lamda=61.2322; Lf=15; Lfdiv=15.30805; Lp=27; Placa=100; Wa=2; Wf=3; Wfdiv=1.6548; Wp=26.11}
#"Frequency / MHz"	"S2,2 [Mag]"	"S2,2 [Pha in deg.]"	"Ref.Imp. [Mag]"	"Ref.Imp. [Pha in deg.]"
#---------------------------------------------------------------------------------------------
1500.0000000000	0.99356450208278	152.79729477583	50.000000000000	0.0000000000000
1502.0000000000	0.99358757410530	152.29851912413	50.000000000000	0.0000000000000
1504.0000000000	0.99361007191489	151.80198194215	50.000000000000	0.0000000000000
1506.0000000000	0.99363200562287	151.30764382528	50.000000000000	0.0000000000000
1508.0000000000	0.99365338483437	150.81546572733	50.000000000000	0.0000000000000
1510.0000000000	0.99367421866458	150.32540895493	50.000000000000	0.0000000000000
1512.0000000000	0.99369451575439	149.83743516195	50.000000000000	0.0000000000000
1514.0000000000	0.99371428428563	149.35150634378	50.000000000000	0.0000000000000
1516.0000000000	0.99373353199582	148.86758483163	50.000000000000	0.0000000000000
1518.0000000000	0.99375226619242	148.38563328679	50.000000000000	0.0000000000000
1520.0000000000	0.99377049376668	147.90561469478	50.000000000000	0.0000000000000
1522.0000000000	0.99378822120702	147.42749235958	50.000000000000	0.0000000000000
1524.0000000000	0.99380545461197	146.95122989769	50.000000000000	0.0000000000000
1526.0000000000	0.99382219970273	146.47679123229	50.000000000000	0.0000000000000
1528.0000000000	0.99383846183531	146.00414058729	50.000000000000	0.0000000000000
1530.0000000000	0.99385424601221	145.53324248139	50.000000000000	0.0000000000000
1532.0000000000	0.99386955689379	145.06406172214	50.000000000000	0.0000000000000
1534.0000000000	0.99388439880924	144.59656339994	50.000000000000	0.0000000000000
1536.0000000000	0.99389877576713	144.13071288203	50.000000000000	0.0000000000000
1538.0000000000	0.99391269146565	143.66647580653	50.000000000000	0.0000000000000
1540.0000000000	0.99392614930250	143.20381807638	50.000000000000	0.0000000000000
1542.0000000000	0.99393915238439	142.74270585334	50.000000000000	0.0000000000000
1544.0000000000	0.99395170353624	142.28310555195	50.000000000000	0.0000000000000
1546.0000000000	0.99396380531003	141.82498383346	50.000000000000	0.0000000000000
1548.0000000000	0.99397545999340	141.36830759985	50.000000000000	0.0000000000000
1550.0000000000	0.99398666961779	140.91304398771	50.000000000000	0.0000000000000
1552.0000000000	0.99399743596648	140.45916036224	50.000000000000	0.0000000000000
1554.0000000000	0.99400776058210	140.00662431114	50.000000000000	0.0000000000000
1556.0000000000	0.99401764477410	139.55540363864	50.000000000000	0.0000000000000
1558.0000000000	0.99402708962573	139.10546635934	50.000000000000	0.0000000000000
1560.0000000000	0.99403609600085	138.65678069224	50.000000000000	0.0000000000000
1562.0000000000	0.99404466455047	138.20931505460	50.000000000000	0.0000000000000
1564.0000000000	0.99405279571899	137.76303805597	50.000000000000	0.0000000000000
1566.0000000000	0.99406048975023	137.31791849203	50.000000000000	0.0000000000000
1568.0000000000	0.99406774669313	136.87392533863	50.000000000000	0.0000000000000
1570.0000000000	0.99407456640735	136.43102774566	50.000000000000	0.0000000000000
1572.0000000000	0.99408094856846	135.98919503098	50.000000000000	0.0000000000000
1574.0000000000	0.99408689267305	135.54839667444	50.000000000000	0.0000000000000
1576.0000000000	0.99409239804351	135.10860231170	50.000000000000	0.0000000000000
1578.0000000000	0.99409746383263	134.66978172827	50.000000000000	0.0000000000000
1580.0000000000	0.99410208902800	134.23190485337	50.000000000000	0.0000000000000
1582.0000000000	0.99410627245615	133.79494175386	50.000000000000	0.0000000000000
1584.0000000000	0.99411001278654	133.35886262821	50.000000000000	0.0000000000000
1586.0000000000	0.99411330853530	132.92363780036	50.000000000000	0.0000000000000
1588.0000000000	0.99411615806878	132.48923771366	50.000000000000	0.0000000000000
1590.0000000000	0.99411855960694	132.05563292478	50.000000000000	0.0000000000000
1592.0000000000	0.99412051122650	131.62279409758	50.000000000000	0.0000000000000
1594.0000000000	0.99412201086395	131.19069199699	50.000000000000	0.0000000000000
1596.0000000000	0.99412305631831	130.75929748293	50.000000000000	0.0000000000000
1598.0000000000	0.99412364525380	130.32858150411	50.000000000000	0.0000000000000
1600.0000000000	0.99412377502071	129.89851296844	50.000000000000	0.0000000000000
1602.0000000000	0.99412344320556	129.46906508081	50.000000000000	0.0000000000000
1604.0000000000	0.99412264708203	129.04020901986	50.000000000000	0.0000000000000
1606.0000000000	0.99412138379772	128.61191602833	50.000000000000	0.0000000000000
1608.0000000000	0.99411965037593	128.18415740686	50.000000000000	0.0000000000000
1610.0000000000	0.99411744371719	127.75690450777	50.000000000000	0.0000000000000
1612.0000000000	0.99411476060074	127.33012872872	50.000000000000	0.0000000000000
1614.0000000000	0.99411159768582	126.90380150652	50.000000000000	0.0000000000000
1616.0000000000	0.99410795151270	126.47789431073	50.000000000000	0.0000000000000
1618.0000000000	0.99410381850374	126.05237863736	50.000000000000	0.0000000000000
1620.0000000000	0.99409919496409	125.62722600249	50.000000000000	0.0000000000000
1622.0000000000	0.99409407708239	125.20240793584	50.000000000000	0.0000000000000
1624.0000000000	0.99408846093124	124.77789597435	50.000000000000	0.0000000000000
1626.0000000000	0.99408234246753	124.35366165570	50.000000000000	0.0000000000000
1628.0000000000	0.99407571753263	123.92967651175	50.000000000000	0.0000000000000
1630.0000000000	0.99406858185242	123.50591206204	50.000000000000	0.0000000000000
1632.0000000000	0.99406093103713	123.08233980714	50.000000000000	0.0000000000000
1634.0000000000	0.99405276058112	122.65893122201	50.000000000000	0.0000000000000
1636.0000000000	0.99404406586240	122.23565774929	50.000000000000	0.0000000000000
1638.0000000000	0.99403484214212	121.81249079259	50.000000000000	0.0000000000000
1640.0000000000	0.99402508456372	121.38940170960	50.000000000000	0.0000000000000
1642.0000000000	0.99401478815218	120.96636180533	50.000000000000	0.0000000000000
1644.0000000000	0.99400394781289	120.54334232509	50.000000000000	0.0000000000000
1646.0000000000	0.99399255833046	120.12031444756	50.000000000000	0.0000000000000
1648.0000000000	0.99398061436741	119.69724927773	50.000000000000	0.0000000000000
1650.0000000000	0.99396811046264	119.27411783975	50.000000000000	0.0000000000000
1652.0000000000	0.99395504102976	118.85089106979	50.000000000000	0.0000000000000
1654.0000000000	0.99394140035524	118.42753980871	50.000000000000	0.0000000000000
1656.0000000000	0.99392718259648	118.00403479476	50.000000000000	0.0000000000000
1658.0000000000	0.99391238177958	117.58034665615	50.000000000000	0.0000000000000
1660.0000000000	0.99389699179706	117.15644590351	50.000000000000	0.0000000000000
1662.0000000000	0.99388100640538	116.73230292232	50.000000000000	0.0000000000000
1664.0000000000	0.99386441922222	116.30788796518	50.000000000000	0.0000000000000
1666.0000000000	0.99384722372368	115.88317114407	50.000000000000	0.0000000000000
1668.0000000000	0.99382941324127	115.45812242244	50.000000000000	0.0000000000000
1670.0000000000	0.99381098095865	115.03271160719	50.000000000000	0.0000000000000
1672.0000000000	0.99379191990829	114.60690834064	50.000000000000	0.0000000000000
1674.0000000000	0.99377222296790	114.18068209224	50.000000000000	0.0000000000000
1676.0000000000	0.99375188285658	113.75400215031	50.000000000000	0.0000000000000
1678.0000000000	0.99373089213095	113.32683761355	50.000000000000	0.0000000000000
1680.0000000000	0.99370924318086	112.89915738252	50.000000000000	0.0000000000000
1682.0000000000	0.99368692822511	112.47093015088	50.000000000000	0.0000000000000
1684.0000000000	0.99366393930676	112.04212439660	50.000000000000	0.0000000000000
1686.0000000000	0.99364026828836	111.61270837300	50.000000000000	0.0000000000000
1688.0000000000	0.99361590684687	111.18265009960	50.000000000000	0.0000000000000
1690.0000000000	0.99359084646839	110.75191735289	50.000000000000	0.0000000000000
1692.0000000000	0.99356507844263	110.32047765687	50.000000000000	0.0000000000000
1694.0000000000	0.99353859385715	109.88829827357	50.000000000000	0.0000000000000
1696.0000000000	0.99351138359130	109.45534619320	50.000000000000	0.0000000000000
1698.0000000000	0.99348343830998	109.02158812434	50.000000000000	0.0000000000000
1700.0000000000	0.99345474845704	108.58699048380	50.000000000000	0.0000000000000
1702.0000000000	0.99342530424845	108.15151938637	50.000000000000	0.0000000000000
1704.0000000000	0.99339509566516	107.71514063440	50.000000000000	0.0000000000000
1706.0000000000	0.99336411244571	107.27781970713	50.000000000000	0.0000000000000
1708.0000000000	0.99333234407843	106.83952174984	50.000000000000	0.0000000000000
1710.0000000000	0.99329977979343	106.40021156283	50.000000000000	0.0000000000000
1712.0000000000	0.99326640855418	105.95985359016	50.000000000000	0.0000000000000
1714.0000000000	0.99323221904879	105.51841190813	50.000000000000	0.0000000000000
1716.0000000000	0.99319719968091	105.07585021361	50.000000000000	0.0000000000000
1718.0000000000	0.99316133856030	104.63213181210	50.000000000000	0.0000000000000
1720.0000000000	0.99312462349293	104.18721960552	50.000000000000	0.0000000000000
1722.0000000000	0.99308704197080	103.74107607980	50.000000000000	0.0000000000000
1724.0000000000	0.99304858116129	103.29366329218	50.000000000000	0.0000000000000
1726.0000000000	0.99300922789602	102.84494285826	50.000000000000	0.0000000000000
1728.0000000000	0.99296896865941	102.39487593878	50.000000000000	0.0000000000000
1730.0000000000	0.99292778957666	101.94342322609	50.000000000000	0.0000000000000
1732.0000000000	0.99288567640129	101.49054493037	50.000000000000	0.0000000000000
1734.0000000000	0.99284261450219	101.03620076549	50.000000000000	0.0000000000000
1736.0000000000	0.99279858885015	100.58034993465	50.000000000000	0.0000000000000
1738.0000000000	0.99275358400384	100.12295111562	50.000000000000	0.0000000000000
1740.0000000000	0.99270758409524	99.663962445680	50.000000000000	0.0000000000000
1742.0000000000	0.99266057281449	99.203341506216	50.000000000000	0.0000000000000
1744.0000000000	0.99261253339413	98.741045306989	50.000000000000	0.0000000000000
1746.0000000000	0.99256344859268	98.277030270012	50.000000000000	0.0000000000000
1748.0000000000	0.99251330067765	97.811252213070	50.000000000000	0.0000000000000
1750.0000000000	0.99246207140772	97.343666332857	50.000000000000	0.0000000000000
1752.0000000000	0.99240974201438	96.874227187720	50.000000000000	0.0000000000000
1754.0000000000	0.99235629318267	96.402888679985	50.000000000000	0.0000000000000
1756.0000000000	0.99230170503124	95.929604037880	50.000000000000	0.0000000000000
1758.0000000000	0.99224595704831	95.454322437185	50.000000000000	0.0000000000000
1760.0000000000	0.99218902820680	94.976999056638	50.000000000000	0.0000000000000
1762.0000000000	0.99213089679832	94.497584989937	50.000000000000	0.0000000000000
1764.0000000000	0.99207154045976	94.016030579895	50.000000000000	0.0000000000000
1766.0000000000	0.99201093614898	93.532285398064	50.000000000000	0.0000000000000
1768.0000000000	0.99194906011936	93.046298223853	50.000000000000	0.0000000000000
1770.0000000000	0.99188588789345	92.558017023131	50.000000000000	0.0000000000000
1772.0000000000	0.99182139423542	92.067388926296	50.000000000000	0.0000000000000
1774.0000000000	0.99175555312247	91.574360205801	50.000000000000	0.0000000000000
1776.0000000000	0.99168833771493	91.078876253107	50.000000000000	0.0000000000000
1778.0000000000	0.99161972032528	90.580881555066	50.000000000000	0.0000000000000
1780.0000000000	0.99154967238572	90.080319669696	50.000000000000	0.0000000000000
1782.0000000000	0.99147816441447	89.577133201345	50.000000000000	0.0000000000000
1784.0000000000	0.99140516598066	89.071263775215	50.000000000000	0.0000000000000
1786.0000000000	0.99133064566770	88.562652011240	50.000000000000	0.0000000000000
1788.0000000000	0.99125457103514	88.051237497284	50.000000000000	0.0000000000000
1790.0000000000	0.99117690857886	87.536958761652	50.000000000000	0.0000000000000
1792.0000000000	0.99109762368964	87.019753244882	50.000000000000	0.0000000000000
1794.0000000000	0.99101668060994	86.499557270810	50.000000000000	0.0000000000000
1796.0000000000	0.99093404238876	85.976306016872	50.000000000000	0.0000000000000
1798.0000000000	0.99084967083469	85.449933483631	50.000000000000	0.0000000000000
1800.0000000000	0.99076352646681	84.920372463512	50.000000000000	0.0000000000000
1802.0000000000	0.99067556846358	84.387554508695	50.000000000000	0.0000000000000
1804.0000000000	0.99058575460941	83.851409898183	50.000000000000	0.0000000000000
1806.0000000000	0.99049404123899	83.311867603979	50.000000000000	0.0000000000000
1808.0000000000	0.99040038317915	82.768855256377	50.000000000000	0.0000000000000
1810.0000000000	0.99030473368819	82.222299108327	50.000000000000	0.0000000000000
1812.0000000000	0.99020704439249	81.672123998854	50.000000000000	0.0000000000000
1814.0000000000	0.99010726522044	81.118253315497	50.000000000000	0.0000000000000
1816.0000000000	0.99000534433334	80.560608955746	50.000000000000	0.0000000000000
1818.0000000000	0.98990122805326	79.999111287451	50.000000000000	0.0000000000000
1820.0000000000	0.98979486078774	79.433679108166	50.000000000000	0.0000000000000
1822.0000000000	0.98968618495107	78.864229603405	50.000000000000	0.0000000000000
1824.0000000000	0.98957514088206	78.290678303781	50.000000000000	0.0000000000000
1826.0000000000	0.98946166675812	77.712939040988	50.000000000000	0.0000000000000
1828.0000000000	0.98934569850549	77.130923902605	50.000000000000	0.0000000000000
1830.0000000000	0.98922716970536	76.544543185687	50.000000000000	0.0000000000000
1832.0000000000	0.98910601149577	75.953705349105	50.000000000000	0.0000000000000
1834.0000000000	0.98898215246902	75.358316964609	50.000000000000	0.0000000000000
1836.0000000000	0.98885551856442	74.758282666576	50.000000000000	0.0000000000000
1838.0000000000	0.98872603295618	74.153505100410	50.000000000000	0.0000000000000
1840.0000000000	0.98859361593598	73.543884869553	50.000000000000	0.0000000000000
1842.0000000000	0.98845818479038	72.929320481089	50.000000000000	0.0000000000000
1844.0000000000	0.98831965367237	72.309708289879	50.000000000000	0.0000000000000
1846.0000000000	0.98817793346706	71.684942441213	50.000000000000	0.0000000000000
1848.0000000000	0.98803293165113	71.054914811928	50.000000000000	0.0000000000000
1850.0000000000	0.98788455214576	70.419514949962	50.000000000000	0.0000000000000
1852.0000000000	0.98773269516260	69.778630012302	50.000000000000	0.0000000000000
1854.0000000000	0.98757725704267	69.132144701287	50.000000000000	0.0000000000000
1856.0000000000	0.98741813008760	68.479941199237	50.000000000000	0.0000000000000
1858.0000000000	0.98725520238300	67.821899101350	50.000000000000	0.0000000000000
1860.0000000000	0.98708835761342	67.157895346845	50.000000000000	0.0000000000000
1862.0000000000	0.98691747486867	66.487804148309	50.000000000000	0.0000000000000
1864.0000000000	0.98674242844092	65.811496919199	50.000000000000	0.0000000000000
1866.0000000000	0.98656308761214	65.128842199469	50.000000000000	0.0000000000000
1868.0000000000	0.98637931643151	64.439705579281	50.000000000000	0.0000000000000
1870.0000000000	0.98619097348213	63.743949620752	50.000000000000	0.0000000000000
1872.0000000000	0.98599791163667	63.041433777717	50.000000000000	0.0000000000000
1874.0000000000	0.98579997780127	62.332014313443	50.000000000000	0.0000000000000
1876.0000000000	0.98559701264722	61.615544216279	50.000000000000	0.0000000000000
1878.0000000000	0.98538885032970	60.891873113195	50.000000000000	0.0000000000000
1880.0000000000	0.98517531819302	60.160847181159	50.000000000000	0.0000000000000
1882.0000000000	0.98495623646167	59.422309056344	50.000000000000	0.0000000000000
1884.0000000000	0.98473141791644	58.676097741100	50.000000000000	0.0000000000000
1886.0000000000	0.98450066755489	57.922048508673	50.000000000000	0.0000000000000
1888.0000000000	0.98426378223540	57.159992805626	50.000000000000	0.0000000000000
1890.0000000000	0.98402055030399	56.389758151934	50.000000000000	0.0000000000000
1892.0000000000	0.98377075120298	55.611168038719	50.000000000000	0.0000000000000
1894.0000000000	0.98351415506066	54.824041823591	50.000000000000	0.0000000000000
1896.0000000000	0.98325052226109	54.028194623559	50.000000000000	0.0000000000000
1898.0000000000	0.98297960299281	53.223437205491	50.000000000000	0.0000000000000
1900.0000000000	0.98270113677564	52.409575874086	50.000000000000	0.0000000000000
1902.0000000000	0.98241485196444	51.586412357334	50.000000000000	0.0000000000000
1904.0000000000	0.98212046522854	50.753743689421	50.000000000000	0.0000000000000
1906.0000000000	0.98181768100579	49.911362091076	50.000000000000	0.0000000000000
1908.0000000000	0.98150619092991	49.059054847303	50.000000000000	0.0000000000000
1910.0000000000	0.98118567322979	48.196604182492	50.000000000000	0.0000000000000
1912.0000000000	0.98085579209938	47.323787132856	50.000000000000	0.0000000000000
1914.0000000000	0.98051619703661	46.440375416186	50.000000000000	0.0000000000000
1916.0000000000	0.98016652214997	45.546135298870	50.000000000000	0.0000000000000
1918.0000000000	0.97980638543092	44.640827460143	50.000000000000	0.0000000000000
1920.0000000000	0.97943538799054	43.724206853528	50.000000000000	0.0000000000000
1922.0000000000	0.97905311325863	42.796022565415	50.000000000000	0.0000000000000
1924.0000000000	0.97865912614318	41.856017670715	50.000000000000	0.0000000000000
1926.0000000000	0.97825297214846	40.903929085527	50.000000000000	0.0000000000000
1928.0000000000	0.97783417644932	39.939487416734	50.000000000000	0.0000000000000
1930.0000000000	0.97740224291966	38.962416808422	50.000000000000	0.0000000000000
1932.0000000000	0.97695665311250	37.972434785014	50.000000000000	0.0000000000000
1934.0000000000	0.97649686518921	36.969252090962	50.000000000000	0.0000000000000
1936.0000000000	0.97602231279509	35.952572526838	50.000000000000	0.0000000000000
1938.0000000000	0.97553240387839	34.922092781605	50.000000000000	0.0000000000000
1940.0000000000	0.97502651944973	33.877502260815	50.000000000000	0.0000000000000
1942.0000000000	0.97450401227838	32.818482910434	50.000000000000	0.0000000000000
1944.0000000000	0.97396420552191	31.744709035932	50.000000000000	0.0000000000000
1946.0000000000	0.97340639128516	30.655847116189	50.000000000000	0.0000000000000
1948.0000000000	0.97282982910433	29.551555611706	50.000000000000	0.0000000000000
1950.0000000000	0.97223374435139	28.431484766475	50.000000000000	0.0000000000000
1952.0000000000	0.97161732655373	27.295276402793	50.000000000000	0.0000000000000
1954.0000000000	0.97097972762338	26.142563708098	50.000000000000	0.0000000000000
1956.0000000000	0.97032005998946	24.972971012791	50.000000000000	0.0000000000000
1958.0000000000	0.96963739462688	23.786113557803	50.000000000000	0.0000000000000
1960.0000000000	0.96893075897355	22.581597250407	50.000000000000	0.0000000000000
1962.0000000000	0.96819913472725	21.359018406554	50.000000000000	0.0000000000000
1964.0000000000	0.96744145551226	20.117963477662	50.000000000000	0.0000000000000
1966.0000000000	0.96665660440457	18.858008759441	50.000000000000	0.0000000000000
1968.0000000000	0.96584341130299	17.578720079917	50.000000000000	0.0000000000000
1970.0000000000	0.96500065013147	16.279652463291	50.000000000000	0.0000000000000
1972.0000000000	0.96412703585605	14.960349765726	50.000000000000	0.0000000000000
1974.0000000000	0.96322122129717	13.620344278460	50.000000000000	0.0000000000000
1976.0000000000	0.96228179371526	12.259156292841	50.000000000000	0.0000000000000
1978.0000000000	0.96130727114380	10.876293620994	50.000000000000	0.0000000000000
1980.0000000000	0.96029609844024	9.4712510647212	50.000000000000	0.0000000000000
1982.0000000000	0.95924664301977	8.0435098239941	50.000000000000	0.0000000000000
